
T041C 000:000 SEGGER J-Link V4.90 Log File (0001ms, 0001ms total)
T041C 000:000 DLL Compiled: Jul 28 2014 10:35:20 (0001ms, 0001ms total)
T041C 000:000 Logging started @ 2017-10-25 17:10 (0001ms, 0001ms total)
T041C 000:001 JLINK_SetWarnOutHandler(...) (0000ms, 0001ms total)
T041C 000:001 JLINK_OpenEx(...)
Firmware: J-Link ARM V8 compiled Nov 28 2014 13:44:46
Hardware: V8.00
S/N: 91999999
Feature(s): RDI,FlashDL,FlashBP,JFlash,GDBFULL  returns O.K. (0264ms, 0265ms total)
T041C 000:265 JLINK_GetEmuCaps()  returns 0xB9FF7BBF (0000ms, 0265ms total)
T041C 000:266 JLINK_TIF_GetAvailable(...) (0000ms, 0266ms total)
T041C 000:266 JLINK_SetErrorOutHandler(...) (0000ms, 0266ms total)
T041C 000:266 JLINK_ExecCommand("ProjectFile = "G:\Ò»Ö¡ êÍ\project\MDK\RFID RC522\µ÷ÊÔ\µ÷ÊÔ01\USER\JLinkSettings.ini"", ...)  returns 0x00 (0002ms, 0268ms total)
T041C 000:274 JLINK_ExecCommand("Device = STM32F103RC", ...)Device "STM32F103RC" selected (256 KB flash, 48 KB RAM).  returns 0x00 (0019ms, 0287ms total)
T041C 000:293 JLINK_ExecCommand("DisableConnectionTimeout", ...)  returns 0x01 (0000ms, 0287ms total)
T041C 000:293 JLINK_GetHardwareVersion()  returns 0x13880 (0000ms, 0287ms total)
T041C 000:293 JLINK_GetDLLVersion()  returns 49000 (0000ms, 0287ms total)
T041C 000:293 JLINK_GetFirmwareString(...) (0000ms, 0287ms total)
T041C 000:315 JLINK_GetDLLVersion()  returns 49000 (0000ms, 0287ms total)
T041C 000:315 JLINK_GetCompileDateTime() (0000ms, 0287ms total)
T041C 000:322 JLINK_GetFirmwareString(...) (0000ms, 0287ms total)
T041C 000:324 JLINK_GetHardwareVersion()  returns 0x13880 (0000ms, 0287ms total)
T041C 000:333 JLINK_TIF_Select(JLINKARM_TIF_SWD)  returns 0x00 (0000ms, 0287ms total)
T041C 000:333 JLINK_SetSpeed(5000) (0000ms, 0287ms total)
T041C 000:333 JLINK_GetId() >0x108 TIF>Found SWD-DP with ID 0x1BA01477 >0x0D TIF> >0x28 TIF> >0x0D TIF> >0x28 TIF> >0x0D TIF> >0x21 TIF> >0x0D TIF> >0x28 TIF> >0x0D TIF> >0x28 TIF> >0x0D TIF> >0x28 TIF> >0x0D TIF> >0x21 TIF> >0x0D TIF> >0x21 TIF> >0x0D TIF> >0x28 TIF> >0x0D TIF> >0x21 TIF> >0x0D TIF> >0x21 TIF> >0x0D TIF> >0x28 TIF> >0x0D TIF> >0x28 TIF> >0x108 TIF>Found SWD-DP with ID 0x1BA01477 >0x0D TIF> >0x21 TIF> >0x0D TIF> >0x28 TIF> >0x0D TIF> >0x28 TIF> >0x0D TIF> >0x21 TIF> >0x0D TIF> >0x28 TIF>
 >0x0D TIF> >0x21 TIF> >0x0D TIF> >0x21 TIF> >0x0D TIF> >0x21 TIF> >0x0D TIF> >0x21 TIF> >0x0D TIF> >0x28 TIF> >0x0D TIF> >0x28 TIF> >0x0D TIF> >0x21 TIF> >0x0D TIF> >0x28 TIF> >0x0D TIF> >0x28 TIF> >0x0D TIF> >0x28 TIF> >0x0D TIF> >0x21 TIF> >0x0D TIF> >0x21 TIF> >0x0D TIF> >0x28 TIF> >0x0D TIF> >0x21 TIF> >0x0D TIF> >0x21 TIF>Found Cortex-M3 r1p1, Little endian. -- CPU_WriteMem(4 bytes @ 0xE0002000) -- CPU_ReadMem(4 bytes @ 0xE000EDF0) -- CPU_WriteMem(4 bytes @ 0xE000EDF0)
 -- CPU_ReadMem(4 bytes @ 0xE0002000)FPUnit: 6 code (BP) slots and 2 literal slots -- CPU_ReadMem(4 bytes @ 0xE000EDFC) -- CPU_WriteMem(4 bytes @ 0xE000EDFC) -- CPU_ReadMem(4 bytes @ 0xE0001000) -- CPU_WriteMem(4 bytes @ 0xE0001000) -- CPU_ReadMem(4 bytes @ 0xE00FF010)TPIU fitted. -- CPU_ReadMem(4 bytes @ 0xE00FF014)ETM fitted. -- CPU_ReadMem(4 bytes @ 0xE00FF018) >0x0D TIF> >0x21 TIF>  returns 0x1BA01477 (0032ms, 0319ms total)
T041C 000:365 JLINK_GetDLLVersion()  returns 49000 (0000ms, 0319ms total)
T041C 000:365 JLINK_CORE_GetFound()  returns 0x30000FF (0000ms, 0319ms total)
T041C 000:368 JLINK_GetDebugInfo(0x100) -- Value=0xE00FF003  returns 0x00 (0000ms, 0319ms total)
T041C 000:368 JLINK_GetDebugInfo(0x101)  returns 0xFFFFFFFF (0000ms, 0319ms total)
T041C 000:368 JLINK_ReadMemEx(0xE0041FF0, 0x0010 Bytes, ..., AccessWidth = 33554436) -- CPU is running -- CPU_ReadMem(16 bytes @ 0xE0041FF0) - Data: 0D 00 00 00 90 00 00 00 05 00 00 00 B1 00 00 00  returns 0x10 (0001ms, 0320ms total)
T041C 000:369 JLINK_GetDebugInfo(0x102)  returns 0xFFFFFFFF (0000ms, 0320ms total)
T041C 000:369 JLINK_GetDebugInfo(0x103)  returns 0xFFFFFFFF (0000ms, 0320ms total)
T041C 000:369 JLINK_ReadMemEx(0xE0040FF0, 0x0010 Bytes, ..., AccessWidth = 33554436) -- CPU is running -- CPU_ReadMem(16 bytes @ 0xE0040FF0) - Data: 0D 00 00 00 90 00 00 00 05 00 00 00 B1 00 00 00  returns 0x10 (0000ms, 0320ms total)
T041C 000:369 JLINK_GetDebugInfo(0x104)  returns 0xFFFFFFFF (0000ms, 0320ms total)
T041C 000:369 JLINK_GetDebugInfo(0x105)  returns 0xFFFFFFFF (0000ms, 0320ms total)
T041C 000:369 JLINK_GetDebugInfo(0x106)  returns 0xFFFFFFFF (0000ms, 0320ms total)
T041C 000:369 JLINK_GetDebugInfo(0x107)  returns 0xFFFFFFFF (0000ms, 0320ms total)
T041C 000:369 JLINK_GetDebugInfo(0x10C)  returns 0xFFFFFFFF (0000ms, 0320ms total)
T041C 000:369 JLINK_ReadMemU32(0xE000ED00, 0x0001 Items, ...) -- CPU is running -- CPU_ReadMem(4 bytes @ 0xE000ED00) - Data: 31 C2 1F 41  returns 0x01 (0001ms, 0321ms total)
T041C 000:370 JLINK_GetDebugInfo(0x10F)  returns 0xFFFFFFFF (0000ms, 0321ms total)
T041C 000:370 JLINK_SetResetType(JLINKARM_RESET_TYPE_NORMAL)  returns JLINKARM_RESET_TYPE_NORMAL (0000ms, 0321ms total)
T041C 000:370 JLINK_Reset() -- CPU is running -- CPU_WriteMem(4 bytes @ 0xE000EDF0) -- CPU is running -- CPU_WriteMem(4 bytes @ 0xE000EDFC) >0x35 TIF> -- CPU is running -- CPU_WriteMem(4 bytes @ 0xE000ED0C) -- CPU is running -- CPU_ReadMem(4 bytes @ 0xE000EDF0) -- CPU is running -- CPU_ReadMem(4 bytes @ 0xE000EDF0) -- CPU is running -- CPU_WriteMem(4 bytes @ 0xE000EDF0) -- CPU is running -- CPU_WriteMem(4 bytes @ 0xE000EDFC) -- CPU is running -- CPU_ReadMem(4 bytes @ 0xE000EDF0)
 -- CPU_WriteMem(4 bytes @ 0xE0002000) -- CPU_ReadMem(4 bytes @ 0xE000EDFC) -- CPU_ReadMem(4 bytes @ 0xE0001000) (0015ms, 0336ms total)
T041C 000:385 JLINK_Halt()  returns 0x00 (0000ms, 0336ms total)
T041C 000:385 JLINK_ReadMemU32(0xE000EDF0, 0x0001 Items, ...) -- CPU_ReadMem(4 bytes @ 0xE000EDF0) - Data: 03 00 03 00  returns 0x01 (0000ms, 0336ms total)
T041C 000:385 JLINK_WriteU32(0xE000EDF0, 0xA05F0003) -- CPU_WriteMem(4 bytes @ 0xE000EDF0)  returns 0x00 (0001ms, 0337ms total)
T041C 000:386 JLINK_WriteU32(0xE000EDFC, 0x01000000) -- CPU_WriteMem(4 bytes @ 0xE000EDFC)  returns 0x00 (0000ms, 0337ms total)
T041C 000:396 JLINK_GetHWStatus(...)  returns 0x00 (0001ms, 0338ms total)
T041C 000:402 JLINK_GetNumBPUnits(Type = 0xFFFFFF00)  returns 0x06 (0000ms, 0338ms total)
T041C 000:402 JLINK_GetNumBPUnits(Type = 0xF0)  returns 0x2000 (0000ms, 0338ms total)
T041C 000:402 JLINK_GetNumWPUnits()  returns 0x04 (0000ms, 0338ms total)
T041C 000:408 JLINK_GetSpeed()  returns 0xFA0 (0000ms, 0338ms total)
T041C 000:413 JLINK_ReadMemU32(0xE000E004, 0x0001 Items, ...) -- CPU_ReadMem(4 bytes @ 0xE000E004) - Data: 01 00 00 00  returns 0x01 (0000ms, 0338ms total)
T041C 000:413 JLINK_ReadMemU32(0xE000E004, 0x0001 Items, ...) -- CPU_ReadMem(4 bytes @ 0xE000E004) - Data: 01 00 00 00  returns 0x01 (0001ms, 0339ms total)
T041C 000:414 JLINK_WriteMemEx(0xE0001000, 0x001C Bytes, ..., AccessWidth = 33554436) - Data: 01 00 00 00 00 00 00 00 00 00 00 00 00 00 00 00 ... -- CPU_WriteMem(28 bytes @ 0xE0001000)  returns 0x1C (0000ms, 0339ms total)
T041C 000:414 JLINK_Halt()  returns 0x00 (0000ms, 0339ms total)
T041C 000:414 JLINK_IsHalted()  returns TRUE (0000ms, 0339ms total)
T041C 000:416 JLINK_WriteMem(0x20000000, 0x0164 Bytes, ...) - Data: 00 BE 0A E0 0D 78 2D 06 68 40 08 24 40 00 00 D3 ... -- CPU_WriteMem(356 bytes @ 0x20000000)  returns 0x164 (0003ms, 0342ms total)
T041C 000:419 JLINK_WriteReg(R0, 0x08000000)  returns 0x00 (0000ms, 0342ms total)
T041C 000:419 JLINK_WriteReg(R1, 0x007A1200)  returns 0x00 (0000ms, 0342ms total)
T041C 000:419 JLINK_WriteReg(R2, 0x00000001)  returns 0x00 (0000ms, 0342ms total)
T041C 000:419 JLINK_WriteReg(R3, 0x00000000)  returns 0x00 (0000ms, 0342ms total)
T041C 000:419 JLINK_WriteReg(R4, 0x00000000)  returns 0x00 (0000ms, 0342ms total)
T041C 000:419 JLINK_WriteReg(R5, 0x00000000)  returns 0x00 (0000ms, 0342ms total)
T041C 000:419 JLINK_WriteReg(R6, 0x00000000)  returns 0x00 (0000ms, 0342ms total)
T041C 000:419 JLINK_WriteReg(R7, 0x00000000)  returns 0x00 (0000ms, 0342ms total)
T041C 000:419 JLINK_WriteReg(R8, 0x00000000)  returns 0x00 (0000ms, 0342ms total)
T041C 000:419 JLINK_WriteReg(R9, 0x20000160)  returns 0x00 (0000ms, 0342ms total)
T041C 000:419 JLINK_WriteReg(R10, 0x00000000)  returns 0x00 (0000ms, 0342ms total)
T041C 000:419 JLINK_WriteReg(R11, 0x00000000)  returns 0x00 (0000ms, 0342ms total)
T041C 000:419 JLINK_WriteReg(R12, 0x00000000)  returns 0x00 (0000ms, 0342ms total)
T041C 000:419 JLINK_WriteReg(R13 (SP), 0x20001000)  returns 0x00 (0000ms, 0342ms total)
T041C 000:419 JLINK_WriteReg(R14, 0x20000001)  returns 0x00 (0000ms, 0342ms total)
T041C 000:419 JLINK_WriteReg(R15 (PC), 0x20000038)  returns 0x00 (0000ms, 0342ms total)
T041C 000:419 JLINK_WriteReg(XPSR, 0x01000000)  returns 0x00 (0000ms, 0342ms total)
T041C 000:419 JLINK_WriteReg(MSP, 0x20001000)  returns 0x00 (0000ms, 0342ms total)
T041C 000:419 JLINK_WriteReg(PSP, 0x20001000)  returns 0x00 (0001ms, 0343ms total)
T041C 000:420 JLINK_WriteReg(CFBP, 0x00000000)  returns 0x00 (0000ms, 0343ms total)
T041C 000:420 JLINK_SetBPEx(Addr = 0x20000000, Type = 0xFFFFFFF2) -- CPU_ReadMem(2 bytes @ 0x20000000)  returns 0x00000001 (0000ms, 0343ms total)
T041C 000:420 JLINK_Go() -- CPU_WriteMem(2 bytes @ 0x20000000) -- CPU_WriteMem(4 bytes @ 0xE0002008) -- CPU_WriteMem(4 bytes @ 0xE000200C) -- CPU_WriteMem(4 bytes @ 0xE0002010) -- CPU_WriteMem(4 bytes @ 0xE0002014) -- CPU_WriteMem(4 bytes @ 0xE0002018) -- CPU_WriteMem(4 bytes @ 0xE000201C) -- CPU_WriteMem(4 bytes @ 0xE0001004) (0005ms, 0348ms total)
T041C 000:425 JLINK_IsHalted() -- CPU_ReadMem(2 bytes @ 0x20000000)  returns TRUE (0002ms, 0350ms total)
T041C 000:427 JLINK_ReadReg(R15 (PC))  returns 0x20000000 (0000ms, 0348ms total)
T041C 000:427 JLINK_ClrBPEx(BPHandle = 0x00000001)  returns 0x00 (0000ms, 0348ms total)
T041C 000:427 JLINK_ReadReg(R0)  returns 0x00000000 (0000ms, 0348ms total)
T041C 000:428 JLINK_WriteReg(R0, 0x08000000)  returns 0x00 (0000ms, 0348ms total)
T041C 000:428 JLINK_WriteReg(R1, 0x00000800)  returns 0x00 (0000ms, 0348ms total)
T041C 000:428 JLINK_WriteReg(R2, 0x000000FF)  returns 0x00 (0000ms, 0348ms total)
T041C 000:428 JLINK_WriteReg(R3, 0x00000000)  returns 0x00 (0000ms, 0348ms total)
T041C 000:428 JLINK_WriteReg(R4, 0x00000000)  returns 0x00 (0000ms, 0348ms total)
T041C 000:428 JLINK_WriteReg(R5, 0x00000000)  returns 0x00 (0000ms, 0348ms total)
T041C 000:428 JLINK_WriteReg(R6, 0x00000000)  returns 0x00 (0000ms, 0348ms total)
T041C 000:428 JLINK_WriteReg(R7, 0x00000000)  returns 0x00 (0000ms, 0348ms total)
T041C 000:428 JLINK_WriteReg(R8, 0x00000000)  returns 0x00 (0000ms, 0348ms total)
T041C 000:428 JLINK_WriteReg(R9, 0x20000160)  returns 0x00 (0000ms, 0348ms total)
T041C 000:428 JLINK_WriteReg(R10, 0x00000000)  returns 0x00 (0000ms, 0348ms total)
T041C 000:428 JLINK_WriteReg(R11, 0x00000000)  returns 0x00 (0000ms, 0348ms total)
T041C 000:428 JLINK_WriteReg(R12, 0x00000000)  returns 0x00 (0000ms, 0348ms total)
T041C 000:428 JLINK_WriteReg(R13 (SP), 0x20001000)  returns 0x00 (0000ms, 0348ms total)
T041C 000:428 JLINK_WriteReg(R14, 0x20000001)  returns 0x00 (0000ms, 0348ms total)
T041C 000:428 JLINK_WriteReg(R15 (PC), 0x20000020)  returns 0x00 (0000ms, 0348ms total)
T041C 000:428 JLINK_WriteReg(XPSR, 0x01000000)  returns 0x00 (0000ms, 0348ms total)
T041C 000:428 JLINK_WriteReg(MSP, 0x20001000)  returns 0x00 (0000ms, 0348ms total)
T041C 000:428 JLINK_WriteReg(PSP, 0x20001000)  returns 0x00 (0001ms, 0349ms total)
T041C 000:429 JLINK_WriteReg(CFBP, 0x00000000)  returns 0x00 (0000ms, 0349ms total)
T041C 000:429 JLINK_SetBPEx(Addr = 0x20000000, Type = 0xFFFFFFF2)  returns 0x00000002 (0000ms, 0349ms total)
T041C 000:429 JLINK_Go() (0001ms, 0350ms total)
T041C 000:430 JLINK_IsHalted() -- CPU_ReadMem(2 bytes @ 0x20000000)  returns TRUE (0002ms, 0352ms total)
T041C 000:432 JLINK_ReadReg(R15 (PC))  returns 0x20000000 (0000ms, 0350ms total)
T041C 000:432 JLINK_ClrBPEx(BPHandle = 0x00000002)  returns 0x00 (0000ms, 0350ms total)
T041C 000:432 JLINK_ReadReg(R0)  returns 0x00000001 (0000ms, 0350ms total)
T041C 000:432 JLINK_WriteReg(R0, 0x08000000)  returns 0x00 (0000ms, 0350ms total)
T041C 000:432 JLINK_WriteReg(R1, 0x00000800)  returns 0x00 (0000ms, 0350ms total)
T041C 000:432 JLINK_WriteReg(R2, 0x000000FF)  returns 0x00 (0000ms, 0350ms total)
T041C 000:432 JLINK_WriteReg(R3, 0x00000000)  returns 0x00 (0001ms, 0351ms total)
T041C 000:433 JLINK_WriteReg(R4, 0x00000000)  returns 0x00 (0000ms, 0351ms total)
T041C 000:433 JLINK_WriteReg(R5, 0x00000000)  returns 0x00 (0000ms, 0351ms total)
T041C 000:433 JLINK_WriteReg(R6, 0x00000000)  returns 0x00 (0000ms, 0351ms total)
T041C 000:433 JLINK_WriteReg(R7, 0x00000000)  returns 0x00 (0000ms, 0351ms total)
T041C 000:433 JLINK_WriteReg(R8, 0x00000000)  returns 0x00 (0000ms, 0351ms total)
T041C 000:433 JLINK_WriteReg(R9, 0x20000160)  returns 0x00 (0000ms, 0351ms total)
T041C 000:433 JLINK_WriteReg(R10, 0x00000000)  returns 0x00 (0000ms, 0351ms total)
T041C 000:433 JLINK_WriteReg(R11, 0x00000000)  returns 0x00 (0000ms, 0351ms total)
T041C 000:433 JLINK_WriteReg(R12, 0x00000000)  returns 0x00 (0000ms, 0351ms total)
T041C 000:433 JLINK_WriteReg(R13 (SP), 0x20001000)  returns 0x00 (0000ms, 0351ms total)
T041C 000:433 JLINK_WriteReg(R14, 0x20000001)  returns 0x00 (0000ms, 0351ms total)
T041C 000:433 JLINK_WriteReg(R15 (PC), 0x200000B6)  returns 0x00 (0000ms, 0351ms total)
T041C 000:433 JLINK_WriteReg(XPSR, 0x01000000)  returns 0x00 (0000ms, 0351ms total)
T041C 000:433 JLINK_WriteReg(MSP, 0x20001000)  returns 0x00 (0000ms, 0351ms total)
T041C 000:433 JLINK_WriteReg(PSP, 0x20001000)  returns 0x00 (0000ms, 0351ms total)
T041C 000:433 JLINK_WriteReg(CFBP, 0x00000000)  returns 0x00 (0000ms, 0351ms total)
T041C 000:433 JLINK_SetBPEx(Addr = 0x20000000, Type = 0xFFFFFFF2)  returns 0x00000003 (0000ms, 0351ms total)
T041C 000:433 JLINK_Go() (0002ms, 0353ms total)
T041C 000:435 JLINK_IsHalted()  returns FALSE (0000ms, 0353ms total)
T041C 000:472 JLINK_IsHalted() -- CPU_ReadMem(2 bytes @ 0x20000000)  returns TRUE (0003ms, 0356ms total)
T041C 000:475 JLINK_ReadReg(R15 (PC))  returns 0x20000000 (0000ms, 0353ms total)
T041C 000:475 JLINK_ClrBPEx(BPHandle = 0x00000003)  returns 0x00 (0000ms, 0353ms total)
T041C 000:475 JLINK_ReadReg(R0)  returns 0x00000000 (0000ms, 0353ms total)
T041C 000:475 JLINK_WriteReg(R0, 0x08000800)  returns 0x00 (0000ms, 0353ms total)
T041C 000:475 JLINK_WriteReg(R1, 0x00000800)  returns 0x00 (0000ms, 0353ms total)
T041C 000:475 JLINK_WriteReg(R2, 0x000000FF)  returns 0x00 (0000ms, 0353ms total)
T041C 000:475 JLINK_WriteReg(R3, 0x00000000)  returns 0x00 (0000ms, 0353ms total)
T041C 000:475 JLINK_WriteReg(R4, 0x00000000)  returns 0x00 (0000ms, 0353ms total)
T041C 000:475 JLINK_WriteReg(R5, 0x00000000)  returns 0x00 (0000ms, 0353ms total)
T041C 000:475 JLINK_WriteReg(R6, 0x00000000)  returns 0x00 (0001ms, 0354ms total)
T041C 000:476 JLINK_WriteReg(R7, 0x00000000)  returns 0x00 (0000ms, 0354ms total)
T041C 000:476 JLINK_WriteReg(R8, 0x00000000)  returns 0x00 (0000ms, 0354ms total)
T041C 000:476 JLINK_WriteReg(R9, 0x20000160)  returns 0x00 (0000ms, 0354ms total)
T041C 000:476 JLINK_WriteReg(R10, 0x00000000)  returns 0x00 (0000ms, 0354ms total)
T041C 000:476 JLINK_WriteReg(R11, 0x00000000)  returns 0x00 (0000ms, 0354ms total)
T041C 000:476 JLINK_WriteReg(R12, 0x00000000)  returns 0x00 (0000ms, 0354ms total)
T041C 000:476 JLINK_WriteReg(R13 (SP), 0x20001000)  returns 0x00 (0000ms, 0354ms total)
T041C 000:476 JLINK_WriteReg(R14, 0x20000001)  returns 0x00 (0000ms, 0354ms total)
T041C 000:476 JLINK_WriteReg(R15 (PC), 0x20000020)  returns 0x00 (0000ms, 0354ms total)
T041C 000:476 JLINK_WriteReg(XPSR, 0x01000000)  returns 0x00 (0000ms, 0354ms total)
T041C 000:476 JLINK_WriteReg(MSP, 0x20001000)  returns 0x00 (0000ms, 0354ms total)
T041C 000:476 JLINK_WriteReg(PSP, 0x20001000)  returns 0x00 (0000ms, 0354ms total)
T041C 000:476 JLINK_WriteReg(CFBP, 0x00000000)  returns 0x00 (0000ms, 0354ms total)
T041C 000:476 JLINK_SetBPEx(Addr = 0x20000000, Type = 0xFFFFFFF2)  returns 0x00000004 (0000ms, 0354ms total)
T041C 000:476 JLINK_Go() (0001ms, 0355ms total)
T041C 000:477 JLINK_IsHalted() -- CPU_ReadMem(2 bytes @ 0x20000000)  returns TRUE (0003ms, 0358ms total)
T041C 000:480 JLINK_ReadReg(R15 (PC))  returns 0x20000000 (0000ms, 0355ms total)
T041C 000:480 JLINK_ClrBPEx(BPHandle = 0x00000004)  returns 0x00 (0000ms, 0355ms total)
T041C 000:480 JLINK_ReadReg(R0)  returns 0x00000001 (0000ms, 0355ms total)
T041C 000:480 JLINK_WriteReg(R0, 0x08000800)  returns 0x00 (0000ms, 0355ms total)
T041C 000:480 JLINK_WriteReg(R1, 0x00000800)  returns 0x00 (0000ms, 0355ms total)
T041C 000:480 JLINK_WriteReg(R2, 0x000000FF)  returns 0x00 (0000ms, 0355ms total)
T041C 000:480 JLINK_WriteReg(R3, 0x00000000)  returns 0x00 (0000ms, 0355ms total)
T041C 000:480 JLINK_WriteReg(R4, 0x00000000)  returns 0x00 (0000ms, 0355ms total)
T041C 000:480 JLINK_WriteReg(R5, 0x00000000)  returns 0x00 (0000ms, 0355ms total)
T041C 000:480 JLINK_WriteReg(R6, 0x00000000)  returns 0x00 (0000ms, 0355ms total)
T041C 000:480 JLINK_WriteReg(R7, 0x00000000)  returns 0x00 (0000ms, 0355ms total)
T041C 000:480 JLINK_WriteReg(R8, 0x00000000)  returns 0x00 (0000ms, 0355ms total)
T041C 000:480 JLINK_WriteReg(R9, 0x20000160)  returns 0x00 (0000ms, 0355ms total)
T041C 000:480 JLINK_WriteReg(R10, 0x00000000)  returns 0x00 (0000ms, 0355ms total)
T041C 000:480 JLINK_WriteReg(R11, 0x00000000)  returns 0x00 (0000ms, 0355ms total)
T041C 000:480 JLINK_WriteReg(R12, 0x00000000)  returns 0x00 (0000ms, 0355ms total)
T041C 000:480 JLINK_WriteReg(R13 (SP), 0x20001000)  returns 0x00 (0001ms, 0356ms total)
T041C 000:481 JLINK_WriteReg(R14, 0x20000001)  returns 0x00 (0000ms, 0356ms total)
T041C 000:481 JLINK_WriteReg(R15 (PC), 0x200000B6)  returns 0x00 (0000ms, 0356ms total)
T041C 000:481 JLINK_WriteReg(XPSR, 0x01000000)  returns 0x00 (0000ms, 0356ms total)
T041C 000:481 JLINK_WriteReg(MSP, 0x20001000)  returns 0x00 (0000ms, 0356ms total)
T041C 000:481 JLINK_WriteReg(PSP, 0x20001000)  returns 0x00 (0000ms, 0356ms total)
T041C 000:481 JLINK_WriteReg(CFBP, 0x00000000)  returns 0x00 (0000ms, 0356ms total)
T041C 000:481 JLINK_SetBPEx(Addr = 0x20000000, Type = 0xFFFFFFF2)  returns 0x00000005 (0000ms, 0356ms total)
T041C 000:481 JLINK_Go() (0001ms, 0357ms total)
T041C 000:482 JLINK_IsHalted()  returns FALSE (0000ms, 0357ms total)
T041C 000:485 JLINK_IsHalted()  returns FALSE (0000ms, 0357ms total)
T041C 000:487 JLINK_IsHalted()  returns FALSE (0000ms, 0357ms total)
T041C 000:488 JLINK_IsHalted()  returns FALSE (0000ms, 0357ms total)
T041C 000:499 JLINK_IsHalted()  returns FALSE (0000ms, 0357ms total)
T041C 000:501 JLINK_IsHalted()  returns FALSE (0000ms, 0357ms total)
T041C 000:503 JLINK_IsHalted()  returns FALSE (0000ms, 0357ms total)
T041C 000:505 JLINK_IsHalted() -- CPU_ReadMem(2 bytes @ 0x20000000)  returns TRUE (0002ms, 0359ms total)
T041C 000:507 JLINK_ReadReg(R15 (PC))  returns 0x20000000 (0000ms, 0357ms total)
T041C 000:507 JLINK_ClrBPEx(BPHandle = 0x00000005)  returns 0x00 (0000ms, 0357ms total)
T041C 000:507 JLINK_ReadReg(R0)  returns 0x00000000 (0000ms, 0357ms total)
T041C 000:508 JLINK_WriteReg(R0, 0x08001000)  returns 0x00 (0000ms, 0357ms total)
T041C 000:508 JLINK_WriteReg(R1, 0x00000800)  returns 0x00 (0000ms, 0357ms total)
T041C 000:508 JLINK_WriteReg(R2, 0x000000FF)  returns 0x00 (0000ms, 0357ms total)
T041C 000:508 JLINK_WriteReg(R3, 0x00000000)  returns 0x00 (0000ms, 0357ms total)
T041C 000:508 JLINK_WriteReg(R4, 0x00000000)  returns 0x00 (0000ms, 0357ms total)
T041C 000:508 JLINK_WriteReg(R5, 0x00000000)  returns 0x00 (0000ms, 0357ms total)
T041C 000:508 JLINK_WriteReg(R6, 0x00000000)  returns 0x00 (0000ms, 0357ms total)
T041C 000:508 JLINK_WriteReg(R7, 0x00000000)  returns 0x00 (0000ms, 0357ms total)
T041C 000:508 JLINK_WriteReg(R8, 0x00000000)  returns 0x00 (0000ms, 0357ms total)
T041C 000:508 JLINK_WriteReg(R9, 0x20000160)  returns 0x00 (0000ms, 0357ms total)
T041C 000:508 JLINK_WriteReg(R10, 0x00000000)  returns 0x00 (0000ms, 0357ms total)
T041C 000:508 JLINK_WriteReg(R11, 0x00000000)  returns 0x00 (0000ms, 0357ms total)
T041C 000:508 JLINK_WriteReg(R12, 0x00000000)  returns 0x00 (0000ms, 0357ms total)
T041C 000:508 JLINK_WriteReg(R13 (SP), 0x20001000)  returns 0x00 (0000ms, 0357ms total)
T041C 000:508 JLINK_WriteReg(R14, 0x20000001)  returns 0x00 (0000ms, 0357ms total)
T041C 000:508 JLINK_WriteReg(R15 (PC), 0x20000020)  returns 0x00 (0000ms, 0357ms total)
T041C 000:508 JLINK_WriteReg(XPSR, 0x01000000)  returns 0x00 (0000ms, 0357ms total)
T041C 000:508 JLINK_WriteReg(MSP, 0x20001000)  returns 0x00 (0000ms, 0357ms total)
T041C 000:508 JLINK_WriteReg(PSP, 0x20001000)  returns 0x00 (0000ms, 0357ms total)
T041C 000:508 JLINK_WriteReg(CFBP, 0x00000000)  returns 0x00 (0000ms, 0357ms total)
T041C 000:508 JLINK_SetBPEx(Addr = 0x20000000, Type = 0xFFFFFFF2)  returns 0x00000006 (0001ms, 0358ms total)
T041C 000:509 JLINK_Go() (0001ms, 0359ms total)
T041C 000:510 JLINK_IsHalted() -- CPU_ReadMem(2 bytes @ 0x20000000)  returns TRUE (0002ms, 0361ms total)
T041C 000:512 JLINK_ReadReg(R15 (PC))  returns 0x20000000 (0000ms, 0359ms total)
T041C 000:512 JLINK_ClrBPEx(BPHandle = 0x00000006)  returns 0x00 (0000ms, 0359ms total)
T041C 000:512 JLINK_ReadReg(R0)  returns 0x00000001 (0000ms, 0359ms total)
T041C 000:512 JLINK_WriteReg(R0, 0x08001000)  returns 0x00 (0000ms, 0359ms total)
T041C 000:512 JLINK_WriteReg(R1, 0x00000800)  returns 0x00 (0000ms, 0359ms total)
T041C 000:512 JLINK_WriteReg(R2, 0x000000FF)  returns 0x00 (0000ms, 0359ms total)
T041C 000:512 JLINK_WriteReg(R3, 0x00000000)  returns 0x00 (0000ms, 0359ms total)
T041C 000:512 JLINK_WriteReg(R4, 0x00000000)  returns 0x00 (0000ms, 0359ms total)
T041C 000:512 JLINK_WriteReg(R5, 0x00000000)  returns 0x00 (0001ms, 0360ms total)
T041C 000:513 JLINK_WriteReg(R6, 0x00000000)  returns 0x00 (0000ms, 0360ms total)
T041C 000:513 JLINK_WriteReg(R7, 0x00000000)  returns 0x00 (0000ms, 0360ms total)
T041C 000:513 JLINK_WriteReg(R8, 0x00000000)  returns 0x00 (0000ms, 0360ms total)
T041C 000:513 JLINK_WriteReg(R9, 0x20000160)  returns 0x00 (0000ms, 0360ms total)
T041C 000:513 JLINK_WriteReg(R10, 0x00000000)  returns 0x00 (0000ms, 0360ms total)
T041C 000:513 JLINK_WriteReg(R11, 0x00000000)  returns 0x00 (0000ms, 0360ms total)
T041C 000:513 JLINK_WriteReg(R12, 0x00000000)  returns 0x00 (0000ms, 0360ms total)
T041C 000:513 JLINK_WriteReg(R13 (SP), 0x20001000)  returns 0x00 (0000ms, 0360ms total)
T041C 000:513 JLINK_WriteReg(R14, 0x20000001)  returns 0x00 (0000ms, 0360ms total)
T041C 000:513 JLINK_WriteReg(R15 (PC), 0x200000B6)  returns 0x00 (0000ms, 0360ms total)
T041C 000:513 JLINK_WriteReg(XPSR, 0x01000000)  returns 0x00 (0000ms, 0360ms total)
T041C 000:513 JLINK_WriteReg(MSP, 0x20001000)  returns 0x00 (0000ms, 0360ms total)
T041C 000:513 JLINK_WriteReg(PSP, 0x20001000)  returns 0x00 (0000ms, 0360ms total)
T041C 000:513 JLINK_WriteReg(CFBP, 0x00000000)  returns 0x00 (0000ms, 0360ms total)
T041C 000:513 JLINK_SetBPEx(Addr = 0x20000000, Type = 0xFFFFFFF2)  returns 0x00000007 (0000ms, 0360ms total)
T041C 000:513 JLINK_Go() (0001ms, 0361ms total)
T041C 000:514 JLINK_IsHalted()  returns FALSE (0000ms, 0361ms total)
T041C 000:519 JLINK_IsHalted()  returns FALSE (0000ms, 0361ms total)
T041C 000:523 JLINK_IsHalted()  returns FALSE (0000ms, 0361ms total)
T041C 000:525 JLINK_IsHalted()  returns FALSE (0000ms, 0361ms total)
T041C 000:527 JLINK_IsHalted()  returns FALSE (0000ms, 0361ms total)
T041C 000:528 JLINK_IsHalted()  returns FALSE (0001ms, 0362ms total)
T041C 000:531 JLINK_IsHalted()  returns FALSE (0000ms, 0361ms total)
T041C 000:532 JLINK_IsHalted()  returns FALSE (0001ms, 0362ms total)
T041C 000:534 JLINK_IsHalted()  returns FALSE (0000ms, 0361ms total)
T041C 000:540 JLINK_IsHalted() -- CPU_ReadMem(2 bytes @ 0x20000000)  returns TRUE (0002ms, 0363ms total)
T041C 000:542 JLINK_ReadReg(R15 (PC))  returns 0x20000000 (0000ms, 0361ms total)
T041C 000:542 JLINK_ClrBPEx(BPHandle = 0x00000007)  returns 0x00 (0000ms, 0361ms total)
T041C 000:542 JLINK_ReadReg(R0)  returns 0x00000000 (0000ms, 0361ms total)
T041C 000:543 JLINK_WriteReg(R0, 0x08001800)  returns 0x00 (0000ms, 0361ms total)
T041C 000:543 JLINK_WriteReg(R1, 0x00000800)  returns 0x00 (0000ms, 0361ms total)
T041C 000:543 JLINK_WriteReg(R2, 0x000000FF)  returns 0x00 (0000ms, 0361ms total)
T041C 000:543 JLINK_WriteReg(R3, 0x00000000)  returns 0x00 (0000ms, 0361ms total)
T041C 000:543 JLINK_WriteReg(R4, 0x00000000)  returns 0x00 (0000ms, 0361ms total)
T041C 000:543 JLINK_WriteReg(R5, 0x00000000)  returns 0x00 (0000ms, 0361ms total)
T041C 000:543 JLINK_WriteReg(R6, 0x00000000)  returns 0x00 (0000ms, 0361ms total)
T041C 000:543 JLINK_WriteReg(R7, 0x00000000)  returns 0x00 (0000ms, 0361ms total)
T041C 000:543 JLINK_WriteReg(R8, 0x00000000)  returns 0x00 (0000ms, 0361ms total)
T041C 000:543 JLINK_WriteReg(R9, 0x20000160)  returns 0x00 (0000ms, 0361ms total)
T041C 000:543 JLINK_WriteReg(R10, 0x00000000)  returns 0x00 (0000ms, 0361ms total)
T041C 000:543 JLINK_WriteReg(R11, 0x00000000)  returns 0x00 (0000ms, 0361ms total)
T041C 000:543 JLINK_WriteReg(R12, 0x00000000)  returns 0x00 (0000ms, 0361ms total)
T041C 000:543 JLINK_WriteReg(R13 (SP), 0x20001000)  returns 0x00 (0000ms, 0361ms total)
T041C 000:543 JLINK_WriteReg(R14, 0x20000001)  returns 0x00 (0000ms, 0361ms total)
T041C 000:543 JLINK_WriteReg(R15 (PC), 0x20000020)  returns 0x00 (0000ms, 0361ms total)
T041C 000:543 JLINK_WriteReg(XPSR, 0x01000000)  returns 0x00 (0000ms, 0361ms total)
T041C 000:543 JLINK_WriteReg(MSP, 0x20001000)  returns 0x00 (0000ms, 0361ms total)
T041C 000:543 JLINK_WriteReg(PSP, 0x20001000)  returns 0x00 (0001ms, 0362ms total)
T041C 000:544 JLINK_WriteReg(CFBP, 0x00000000)  returns 0x00 (0000ms, 0362ms total)
T041C 000:544 JLINK_SetBPEx(Addr = 0x20000000, Type = 0xFFFFFFF2)  returns 0x00000008 (0000ms, 0362ms total)
T041C 000:544 JLINK_Go() (0001ms, 0363ms total)
T041C 000:545 JLINK_IsHalted() -- CPU_ReadMem(2 bytes @ 0x20000000)  returns TRUE (0003ms, 0366ms total)
T041C 000:548 JLINK_ReadReg(R15 (PC))  returns 0x20000000 (0000ms, 0363ms total)
T041C 000:548 JLINK_ClrBPEx(BPHandle = 0x00000008)  returns 0x00 (0000ms, 0363ms total)
T041C 000:548 JLINK_ReadReg(R0)  returns 0x00000001 (0000ms, 0363ms total)
T041C 000:548 JLINK_WriteReg(R0, 0x08001800)  returns 0x00 (0000ms, 0363ms total)
T041C 000:548 JLINK_WriteReg(R1, 0x00000800)  returns 0x00 (0000ms, 0363ms total)
T041C 000:548 JLINK_WriteReg(R2, 0x000000FF)  returns 0x00 (0000ms, 0363ms total)
T041C 000:548 JLINK_WriteReg(R3, 0x00000000)  returns 0x00 (0000ms, 0363ms total)
T041C 000:548 JLINK_WriteReg(R4, 0x00000000)  returns 0x00 (0000ms, 0363ms total)
T041C 000:548 JLINK_WriteReg(R5, 0x00000000)  returns 0x00 (0000ms, 0363ms total)
T041C 000:548 JLINK_WriteReg(R6, 0x00000000)  returns 0x00 (0000ms, 0363ms total)
T041C 000:548 JLINK_WriteReg(R7, 0x00000000)  returns 0x00 (0000ms, 0363ms total)
T041C 000:548 JLINK_WriteReg(R8, 0x00000000)  returns 0x00 (0000ms, 0363ms total)
T041C 000:548 JLINK_WriteReg(R9, 0x20000160)  returns 0x00 (0000ms, 0363ms total)
T041C 000:548 JLINK_WriteReg(R10, 0x00000000)  returns 0x00 (0000ms, 0363ms total)
T041C 000:548 JLINK_WriteReg(R11, 0x00000000)  returns 0x00 (0000ms, 0363ms total)
T041C 000:548 JLINK_WriteReg(R12, 0x00000000)  returns 0x00 (0000ms, 0363ms total)
T041C 000:548 JLINK_WriteReg(R13 (SP), 0x20001000)  returns 0x00 (0000ms, 0363ms total)
T041C 000:549 JLINK_WriteReg(R14, 0x20000001)  returns 0x00 (0000ms, 0364ms total)
T041C 000:549 JLINK_WriteReg(R15 (PC), 0x200000B6)  returns 0x00 (0000ms, 0364ms total)
T041C 000:549 JLINK_WriteReg(XPSR, 0x01000000)  returns 0x00 (0000ms, 0364ms total)
T041C 000:549 JLINK_WriteReg(MSP, 0x20001000)  returns 0x00 (0000ms, 0364ms total)
T041C 000:549 JLINK_WriteReg(PSP, 0x20001000)  returns 0x00 (0000ms, 0364ms total)
T041C 000:549 JLINK_WriteReg(CFBP, 0x00000000)  returns 0x00 (0000ms, 0364ms total)
T041C 000:549 JLINK_SetBPEx(Addr = 0x20000000, Type = 0xFFFFFFF2)  returns 0x00000009 (0000ms, 0364ms total)
T041C 000:549 JLINK_Go() (0001ms, 0365ms total)
T041C 000:550 JLINK_IsHalted()  returns FALSE (0000ms, 0365ms total)
T041C 000:556 JLINK_IsHalted()  returns FALSE (0000ms, 0365ms total)
T041C 000:558 JLINK_IsHalted()  returns FALSE (0000ms, 0365ms total)
T041C 000:560 JLINK_IsHalted()  returns FALSE (0000ms, 0365ms total)
T041C 000:562 JLINK_IsHalted()  returns FALSE (0000ms, 0365ms total)
T041C 000:564 JLINK_IsHalted()  returns FALSE (0000ms, 0365ms total)
T041C 000:566 JLINK_IsHalted()  returns FALSE (0000ms, 0365ms total)
T041C 000:570 JLINK_IsHalted()  returns FALSE (0000ms, 0365ms total)
T041C 000:572 JLINK_IsHalted() -- CPU_ReadMem(2 bytes @ 0x20000000)  returns TRUE (0002ms, 0367ms total)
T041C 000:574 JLINK_ReadReg(R15 (PC))  returns 0x20000000 (0000ms, 0365ms total)
T041C 000:574 JLINK_ClrBPEx(BPHandle = 0x00000009)  returns 0x00 (0000ms, 0365ms total)
T041C 000:574 JLINK_ReadReg(R0)  returns 0x00000000 (0000ms, 0365ms total)
T041C 000:575 JLINK_WriteReg(R0, 0x08002000)  returns 0x00 (0000ms, 0365ms total)
T041C 000:575 JLINK_WriteReg(R1, 0x00000800)  returns 0x00 (0000ms, 0365ms total)
T041C 000:575 JLINK_WriteReg(R2, 0x000000FF)  returns 0x00 (0000ms, 0365ms total)
T041C 000:575 JLINK_WriteReg(R3, 0x00000000)  returns 0x00 (0000ms, 0365ms total)
T041C 000:575 JLINK_WriteReg(R4, 0x00000000)  returns 0x00 (0000ms, 0365ms total)
T041C 000:575 JLINK_WriteReg(R5, 0x00000000)  returns 0x00 (0000ms, 0365ms total)
T041C 000:575 JLINK_WriteReg(R6, 0x00000000)  returns 0x00 (0000ms, 0365ms total)
T041C 000:575 JLINK_WriteReg(R7, 0x00000000)  returns 0x00 (0000ms, 0365ms total)
T041C 000:575 JLINK_WriteReg(R8, 0x00000000)  returns 0x00 (0000ms, 0365ms total)
T041C 000:575 JLINK_WriteReg(R9, 0x20000160)  returns 0x00 (0000ms, 0365ms total)
T041C 000:575 JLINK_WriteReg(R10, 0x00000000)  returns 0x00 (0000ms, 0365ms total)
T041C 000:575 JLINK_WriteReg(R11, 0x00000000)  returns 0x00 (0000ms, 0365ms total)
T041C 000:575 JLINK_WriteReg(R12, 0x00000000)  returns 0x00 (0000ms, 0365ms total)
T041C 000:575 JLINK_WriteReg(R13 (SP), 0x20001000)  returns 0x00 (0000ms, 0365ms total)
T041C 000:575 JLINK_WriteReg(R14, 0x20000001)  returns 0x00 (0000ms, 0365ms total)
T041C 000:575 JLINK_WriteReg(R15 (PC), 0x20000020)  returns 0x00 (0000ms, 0365ms total)
T041C 000:575 JLINK_WriteReg(XPSR, 0x01000000)  returns 0x00 (0000ms, 0365ms total)
T041C 000:575 JLINK_WriteReg(MSP, 0x20001000)  returns 0x00 (0001ms, 0366ms total)
T041C 000:576 JLINK_WriteReg(PSP, 0x20001000)  returns 0x00 (0000ms, 0366ms total)
T041C 000:576 JLINK_WriteReg(CFBP, 0x00000000)  returns 0x00 (0000ms, 0366ms total)
T041C 000:576 JLINK_SetBPEx(Addr = 0x20000000, Type = 0xFFFFFFF2)  returns 0x0000000A (0000ms, 0366ms total)
T041C 000:576 JLINK_Go() (0001ms, 0367ms total)
T041C 000:577 JLINK_IsHalted() -- CPU_ReadMem(2 bytes @ 0x20000000)  returns TRUE (0002ms, 0369ms total)
T041C 000:579 JLINK_ReadReg(R15 (PC))  returns 0x20000000 (0000ms, 0367ms total)
T041C 000:579 JLINK_ClrBPEx(BPHandle = 0x0000000A)  returns 0x00 (0001ms, 0368ms total)
T041C 000:580 JLINK_ReadReg(R0)  returns 0x00000001 (0000ms, 0368ms total)
T041C 000:580 JLINK_WriteReg(R0, 0x08002000)  returns 0x00 (0000ms, 0368ms total)
T041C 000:580 JLINK_WriteReg(R1, 0x00000800)  returns 0x00 (0000ms, 0368ms total)
T041C 000:580 JLINK_WriteReg(R2, 0x000000FF)  returns 0x00 (0000ms, 0368ms total)
T041C 000:580 JLINK_WriteReg(R3, 0x00000000)  returns 0x00 (0000ms, 0368ms total)
T041C 000:580 JLINK_WriteReg(R4, 0x00000000)  returns 0x00 (0000ms, 0368ms total)
T041C 000:580 JLINK_WriteReg(R5, 0x00000000)  returns 0x00 (0000ms, 0368ms total)
T041C 000:580 JLINK_WriteReg(R6, 0x00000000)  returns 0x00 (0000ms, 0368ms total)
T041C 000:580 JLINK_WriteReg(R7, 0x00000000)  returns 0x00 (0000ms, 0368ms total)
T041C 000:580 JLINK_WriteReg(R8, 0x00000000)  returns 0x00 (0000ms, 0368ms total)
T041C 000:580 JLINK_WriteReg(R9, 0x20000160)  returns 0x00 (0000ms, 0368ms total)
T041C 000:580 JLINK_WriteReg(R10, 0x00000000)  returns 0x00 (0000ms, 0368ms total)
T041C 000:580 JLINK_WriteReg(R11, 0x00000000)  returns 0x00 (0000ms, 0368ms total)
T041C 000:580 JLINK_WriteReg(R12, 0x00000000)  returns 0x00 (0000ms, 0368ms total)
T041C 000:580 JLINK_WriteReg(R13 (SP), 0x20001000)  returns 0x00 (0000ms, 0368ms total)
T041C 000:580 JLINK_WriteReg(R14, 0x20000001)  returns 0x00 (0000ms, 0368ms total)
T041C 000:580 JLINK_WriteReg(R15 (PC), 0x200000B6)  returns 0x00 (0000ms, 0368ms total)
T041C 000:580 JLINK_WriteReg(XPSR, 0x01000000)  returns 0x00 (0000ms, 0368ms total)
T041C 000:580 JLINK_WriteReg(MSP, 0x20001000)  returns 0x00 (0000ms, 0368ms total)
T041C 000:580 JLINK_WriteReg(PSP, 0x20001000)  returns 0x00 (0000ms, 0368ms total)
T041C 000:580 JLINK_WriteReg(CFBP, 0x00000000)  returns 0x00 (0000ms, 0368ms total)
T041C 000:580 JLINK_SetBPEx(Addr = 0x20000000, Type = 0xFFFFFFF2)  returns 0x0000000B (0001ms, 0369ms total)
T041C 000:581 JLINK_Go() (0000ms, 0369ms total)
T041C 000:581 JLINK_IsHalted()  returns FALSE (0001ms, 0370ms total)
T041C 000:587 JLINK_IsHalted()  returns FALSE (0000ms, 0369ms total)
T041C 000:589 JLINK_IsHalted()  returns FALSE (0000ms, 0369ms total)
T041C 000:591 JLINK_IsHalted()  returns FALSE (0000ms, 0369ms total)
T041C 000:593 JLINK_IsHalted()  returns FALSE (0000ms, 0369ms total)
T041C 000:595 JLINK_IsHalted()  returns FALSE (0000ms, 0369ms total)
T041C 000:597 JLINK_IsHalted()  returns FALSE (0000ms, 0369ms total)
T041C 000:599 JLINK_IsHalted()  returns FALSE (0000ms, 0369ms total)
T041C 000:601 JLINK_IsHalted()  returns FALSE (0000ms, 0369ms total)
T041C 000:603 JLINK_IsHalted()  returns FALSE (0000ms, 0369ms total)
T041C 000:607 JLINK_IsHalted() -- CPU_ReadMem(2 bytes @ 0x20000000)  returns TRUE (0002ms, 0371ms total)
T041C 000:609 JLINK_ReadReg(R15 (PC))  returns 0x20000000 (0000ms, 0369ms total)
T041C 000:609 JLINK_ClrBPEx(BPHandle = 0x0000000B)  returns 0x00 (0000ms, 0369ms total)
T041C 000:609 JLINK_ReadReg(R0)  returns 0x00000000 (0000ms, 0369ms total)
T041C 000:609 JLINK_WriteReg(R0, 0x00000001)  returns 0x00 (0001ms, 0370ms total)
T041C 000:610 JLINK_WriteReg(R1, 0x00000800)  returns 0x00 (0000ms, 0370ms total)
T041C 000:610 JLINK_WriteReg(R2, 0x000000FF)  returns 0x00 (0000ms, 0370ms total)
T041C 000:610 JLINK_WriteReg(R3, 0x00000000)  returns 0x00 (0000ms, 0370ms total)
T041C 000:610 JLINK_WriteReg(R4, 0x00000000)  returns 0x00 (0000ms, 0370ms total)
T041C 000:610 JLINK_WriteReg(R5, 0x00000000)  returns 0x00 (0000ms, 0370ms total)
T041C 000:610 JLINK_WriteReg(R6, 0x00000000)  returns 0x00 (0000ms, 0370ms total)
T041C 000:610 JLINK_WriteReg(R7, 0x00000000)  returns 0x00 (0000ms, 0370ms total)
T041C 000:610 JLINK_WriteReg(R8, 0x00000000)  returns 0x00 (0000ms, 0370ms total)
T041C 000:610 JLINK_WriteReg(R9, 0x20000160)  returns 0x00 (0000ms, 0370ms total)
T041C 000:610 JLINK_WriteReg(R10, 0x00000000)  returns 0x00 (0000ms, 0370ms total)
T041C 000:610 JLINK_WriteReg(R11, 0x00000000)  returns 0x00 (0000ms, 0370ms total)
T041C 000:610 JLINK_WriteReg(R12, 0x00000000)  returns 0x00 (0000ms, 0370ms total)
T041C 000:610 JLINK_WriteReg(R13 (SP), 0x20001000)  returns 0x00 (0000ms, 0370ms total)
T041C 000:610 JLINK_WriteReg(R14, 0x20000001)  returns 0x00 (0000ms, 0370ms total)
T041C 000:610 JLINK_WriteReg(R15 (PC), 0x2000006A)  returns 0x00 (0000ms, 0370ms total)
T041C 000:610 JLINK_WriteReg(XPSR, 0x01000000)  returns 0x00 (0000ms, 0370ms total)
T041C 000:610 JLINK_WriteReg(MSP, 0x20001000)  returns 0x00 (0000ms, 0370ms total)
T041C 000:610 JLINK_WriteReg(PSP, 0x20001000)  returns 0x00 (0000ms, 0370ms total)
T041C 000:610 JLINK_WriteReg(CFBP, 0x00000000)  returns 0x00 (0000ms, 0370ms total)
T041C 000:610 JLINK_SetBPEx(Addr = 0x20000000, Type = 0xFFFFFFF2)  returns 0x0000000C (0000ms, 0370ms total)
T041C 000:610 JLINK_Go() (0001ms, 0371ms total)
T041C 000:611 JLINK_IsHalted() -- CPU_ReadMem(2 bytes @ 0x20000000)  returns TRUE (0003ms, 0374ms total)
T041C 000:614 JLINK_ReadReg(R15 (PC))  returns 0x20000000 (0000ms, 0371ms total)
T041C 000:614 JLINK_ClrBPEx(BPHandle = 0x0000000C)  returns 0x00 (0000ms, 0371ms total)
T041C 000:614 JLINK_ReadReg(R0)  returns 0x00000000 (0000ms, 0371ms total)
T041C 000:671 JLINK_WriteMem(0x20000000, 0x0164 Bytes, ...) - Data: 00 BE 0A E0 0D 78 2D 06 68 40 08 24 40 00 00 D3 ... -- CPU_WriteMem(356 bytes @ 0x20000000)  returns 0x164 (0002ms, 0373ms total)
T041C 000:673 JLINK_WriteReg(R0, 0x08000000)  returns 0x00 (0000ms, 0373ms total)
T041C 000:673 JLINK_WriteReg(R1, 0x007A1200)  returns 0x00 (0001ms, 0374ms total)
T041C 000:674 JLINK_WriteReg(R2, 0x00000002)  returns 0x00 (0000ms, 0374ms total)
T041C 000:674 JLINK_WriteReg(R3, 0x00000000)  returns 0x00 (0000ms, 0374ms total)
T041C 000:674 JLINK_WriteReg(R4, 0x00000000)  returns 0x00 (0000ms, 0374ms total)
T041C 000:674 JLINK_WriteReg(R5, 0x00000000)  returns 0x00 (0000ms, 0374ms total)
T041C 000:674 JLINK_WriteReg(R6, 0x00000000)  returns 0x00 (0000ms, 0374ms total)
T041C 000:674 JLINK_WriteReg(R7, 0x00000000)  returns 0x00 (0000ms, 0374ms total)
T041C 000:674 JLINK_WriteReg(R8, 0x00000000)  returns 0x00 (0000ms, 0374ms total)
T041C 000:674 JLINK_WriteReg(R9, 0x20000160)  returns 0x00 (0000ms, 0374ms total)
T041C 000:674 JLINK_WriteReg(R10, 0x00000000)  returns 0x00 (0000ms, 0374ms total)
T041C 000:674 JLINK_WriteReg(R11, 0x00000000)  returns 0x00 (0000ms, 0374ms total)
T041C 000:674 JLINK_WriteReg(R12, 0x00000000)  returns 0x00 (0000ms, 0374ms total)
T041C 000:674 JLINK_WriteReg(R13 (SP), 0x20001000)  returns 0x00 (0000ms, 0374ms total)
T041C 000:674 JLINK_WriteReg(R14, 0x20000001)  returns 0x00 (0000ms, 0374ms total)
T041C 000:674 JLINK_WriteReg(R15 (PC), 0x20000038)  returns 0x00 (0000ms, 0374ms total)
T041C 000:674 JLINK_WriteReg(XPSR, 0x01000000)  returns 0x00 (0000ms, 0374ms total)
T041C 000:674 JLINK_WriteReg(MSP, 0x20001000)  returns 0x00 (0000ms, 0374ms total)
T041C 000:674 JLINK_WriteReg(PSP, 0x20001000)  returns 0x00 (0000ms, 0374ms total)
T041C 000:674 JLINK_WriteReg(CFBP, 0x00000000)  returns 0x00 (0000ms, 0374ms total)
T041C 000:674 JLINK_SetBPEx(Addr = 0x20000000, Type = 0xFFFFFFF2) -- CPU_ReadMem(2 bytes @ 0x20000000)  returns 0x0000000D (0001ms, 0375ms total)
T041C 000:675 JLINK_Go() -- CPU_WriteMem(2 bytes @ 0x20000000) (0001ms, 0376ms total)
T041C 000:676 JLINK_IsHalted() -- CPU_ReadMem(2 bytes @ 0x20000000)  returns TRUE (0003ms, 0379ms total)
T041C 000:679 JLINK_ReadReg(R15 (PC))  returns 0x20000000 (0000ms, 0376ms total)
T041C 000:679 JLINK_ClrBPEx(BPHandle = 0x0000000D)  returns 0x00 (0000ms, 0376ms total)
T041C 000:679 JLINK_ReadReg(R0)  returns 0x00000000 (0000ms, 0376ms total)
T041C 000:679 JLINK_WriteMem(0x20000164, 0x029C Bytes, ...) - Data: E0 07 00 20 B1 16 00 08 09 04 00 08 0B 04 00 08 ... -- CPU_WriteMem(668 bytes @ 0x20000164)  returns 0x29C (0004ms, 0380ms total)
T041C 000:683 JLINK_WriteMem(0x20000400, 0x0164 Bytes, ...) - Data: 88 42 22 D1 C4 EB C4 00 4D 49 08 44 00 79 4D 49 ... -- CPU_WriteMem(356 bytes @ 0x20000400)  returns 0x164 (0003ms, 0383ms total)
T041C 000:686 JLINK_WriteReg(R0, 0x08000000)  returns 0x00 (0000ms, 0383ms total)
T041C 000:686 JLINK_WriteReg(R1, 0x00000400)  returns 0x00 (0000ms, 0383ms total)
T041C 000:686 JLINK_WriteReg(R2, 0x20000164)  returns 0x00 (0000ms, 0383ms total)
T041C 000:686 JLINK_WriteReg(R3, 0x00000000)  returns 0x00 (0000ms, 0383ms total)
T041C 000:686 JLINK_WriteReg(R4, 0x00000000)  returns 0x00 (0000ms, 0383ms total)
T041C 000:686 JLINK_WriteReg(R5, 0x00000000)  returns 0x00 (0000ms, 0383ms total)
T041C 000:686 JLINK_WriteReg(R6, 0x00000000)  returns 0x00 (0000ms, 0383ms total)
T041C 000:686 JLINK_WriteReg(R7, 0x00000000)  returns 0x00 (0000ms, 0383ms total)
T041C 000:686 JLINK_WriteReg(R8, 0x00000000)  returns 0x00 (0000ms, 0383ms total)
T041C 000:686 JLINK_WriteReg(R9, 0x20000160)  returns 0x00 (0000ms, 0383ms total)
T041C 000:686 JLINK_WriteReg(R10, 0x00000000)  returns 0x00 (0001ms, 0384ms total)
T041C 000:687 JLINK_WriteReg(R11, 0x00000000)  returns 0x00 (0000ms, 0384ms total)
T041C 000:687 JLINK_WriteReg(R12, 0x00000000)  returns 0x00 (0000ms, 0384ms total)
T041C 000:687 JLINK_WriteReg(R13 (SP), 0x20001000)  returns 0x00 (0000ms, 0384ms total)
T041C 000:687 JLINK_WriteReg(R14, 0x20000001)  returns 0x00 (0000ms, 0384ms total)
T041C 000:687 JLINK_WriteReg(R15 (PC), 0x200000F4)  returns 0x00 (0000ms, 0384ms total)
T041C 000:687 JLINK_WriteReg(XPSR, 0x01000000)  returns 0x00 (0000ms, 0384ms total)
T041C 000:687 JLINK_WriteReg(MSP, 0x20001000)  returns 0x00 (0000ms, 0384ms total)
T041C 000:687 JLINK_WriteReg(PSP, 0x20001000)  returns 0x00 (0000ms, 0384ms total)
T041C 000:687 JLINK_WriteReg(CFBP, 0x00000000)  returns 0x00 (0000ms, 0384ms total)
T041C 000:687 JLINK_SetBPEx(Addr = 0x20000000, Type = 0xFFFFFFF2)  returns 0x0000000E (0000ms, 0384ms total)
T041C 000:687 JLINK_Go() (0001ms, 0385ms total)
T041C 000:688 JLINK_IsHalted()  returns FALSE (0001ms, 0386ms total)
T041C 000:694 JLINK_IsHalted()  returns FALSE (0000ms, 0385ms total)
T041C 000:698 JLINK_IsHalted()  returns FALSE (0000ms, 0385ms total)
T041C 000:700 JLINK_IsHalted()  returns FALSE (0000ms, 0385ms total)
T041C 000:702 JLINK_IsHalted()  returns FALSE (0000ms, 0385ms total)
T041C 000:704 JLINK_IsHalted()  returns FALSE (0000ms, 0385ms total)
T041C 000:706 JLINK_IsHalted()  returns FALSE (0000ms, 0385ms total)
T041C 000:708 JLINK_IsHalted()  returns FALSE (0000ms, 0385ms total)
T041C 000:710 JLINK_IsHalted()  returns FALSE (0000ms, 0385ms total)
T041C 000:712 JLINK_IsHalted()  returns FALSE (0000ms, 0385ms total)
T041C 000:714 JLINK_IsHalted()  returns FALSE (0000ms, 0385ms total)
T041C 000:718 JLINK_IsHalted()  returns FALSE (0000ms, 0385ms total)
T041C 000:720 JLINK_IsHalted() -- CPU_ReadMem(2 bytes @ 0x20000000)  returns TRUE (0002ms, 0387ms total)
T041C 000:722 JLINK_ReadReg(R15 (PC))  returns 0x20000000 (0000ms, 0385ms total)
T041C 000:722 JLINK_ClrBPEx(BPHandle = 0x0000000E)  returns 0x00 (0000ms, 0385ms total)
T041C 000:722 JLINK_ReadReg(R0)  returns 0x00000000 (0000ms, 0385ms total)
T041C 000:723 JLINK_WriteMem(0x20000164, 0x029C Bytes, ...) - Data: 20 70 61 67 65 34 00 00 70 47 00 BF FE E7 00 BF ... -- CPU_WriteMem(668 bytes @ 0x20000164)  returns 0x29C (0004ms, 0389ms total)
T041C 000:727 JLINK_WriteMem(0x20000400, 0x0164 Bytes, ...) - Data: F2 49 88 61 08 46 80 69 40 F0 08 00 88 61 F0 48 ... -- CPU_WriteMem(356 bytes @ 0x20000400)  returns 0x164 (0003ms, 0392ms total)
T041C 000:730 JLINK_WriteReg(R0, 0x08000400)  returns 0x00 (0000ms, 0392ms total)
T041C 000:730 JLINK_WriteReg(R1, 0x00000400)  returns 0x00 (0000ms, 0392ms total)
T041C 000:730 JLINK_WriteReg(R2, 0x20000164)  returns 0x00 (0000ms, 0392ms total)
T041C 000:730 JLINK_WriteReg(R3, 0x00000000)  returns 0x00 (0000ms, 0392ms total)
T041C 000:730 JLINK_WriteReg(R4, 0x00000000)  returns 0x00 (0000ms, 0392ms total)
T041C 000:730 JLINK_WriteReg(R5, 0x00000000)  returns 0x00 (0000ms, 0392ms total)
T041C 000:730 JLINK_WriteReg(R6, 0x00000000)  returns 0x00 (0000ms, 0392ms total)
T041C 000:730 JLINK_WriteReg(R7, 0x00000000)  returns 0x00 (0000ms, 0392ms total)
T041C 000:730 JLINK_WriteReg(R8, 0x00000000)  returns 0x00 (0000ms, 0392ms total)
T041C 000:730 JLINK_WriteReg(R9, 0x20000160)  returns 0x00 (0000ms, 0392ms total)
T041C 000:730 JLINK_WriteReg(R10, 0x00000000)  returns 0x00 (0001ms, 0393ms total)
T041C 000:731 JLINK_WriteReg(R11, 0x00000000)  returns 0x00 (0000ms, 0393ms total)
T041C 000:731 JLINK_WriteReg(R12, 0x00000000)  returns 0x00 (0000ms, 0393ms total)
T041C 000:731 JLINK_WriteReg(R13 (SP), 0x20001000)  returns 0x00 (0000ms, 0393ms total)
T041C 000:731 JLINK_WriteReg(R14, 0x20000001)  returns 0x00 (0000ms, 0393ms total)
T041C 000:731 JLINK_WriteReg(R15 (PC), 0x200000F4)  returns 0x00 (0000ms, 0393ms total)
T041C 000:731 JLINK_WriteReg(XPSR, 0x01000000)  returns 0x00 (0000ms, 0393ms total)
T041C 000:731 JLINK_WriteReg(MSP, 0x20001000)  returns 0x00 (0000ms, 0393ms total)
T041C 000:731 JLINK_WriteReg(PSP, 0x20001000)  returns 0x00 (0000ms, 0393ms total)
T041C 000:731 JLINK_WriteReg(CFBP, 0x00000000)  returns 0x00 (0000ms, 0393ms total)
T041C 000:731 JLINK_SetBPEx(Addr = 0x20000000, Type = 0xFFFFFFF2)  returns 0x0000000F (0000ms, 0393ms total)
T041C 000:731 JLINK_Go() (0001ms, 0394ms total)
T041C 000:732 JLINK_IsHalted()  returns FALSE (0000ms, 0394ms total)
T041C 000:735 JLINK_IsHalted()  returns FALSE (0000ms, 0394ms total)
T041C 000:737 JLINK_IsHalted()  returns FALSE (0000ms, 0394ms total)
T041C 000:740 JLINK_IsHalted()  returns FALSE (0000ms, 0394ms total)
T041C 000:742 JLINK_IsHalted()  returns FALSE (0000ms, 0394ms total)
T041C 000:744 JLINK_IsHalted()  returns FALSE (0000ms, 0394ms total)
T041C 000:746 JLINK_IsHalted()  returns FALSE (0000ms, 0394ms total)
T041C 000:748 JLINK_IsHalted()  returns FALSE (0000ms, 0394ms total)
T041C 000:750 JLINK_IsHalted()  returns FALSE (0000ms, 0394ms total)
T041C 000:752 JLINK_IsHalted()  returns FALSE (0000ms, 0394ms total)
T041C 000:754 JLINK_IsHalted()  returns FALSE (0000ms, 0394ms total)
T041C 000:756 JLINK_IsHalted()  returns FALSE (0000ms, 0394ms total)
T041C 000:758 JLINK_IsHalted()  returns FALSE (0000ms, 0394ms total)
T041C 000:762 JLINK_IsHalted()  returns FALSE (0000ms, 0394ms total)
T041C 000:764 JLINK_IsHalted() -- CPU_ReadMem(2 bytes @ 0x20000000)  returns TRUE (0002ms, 0396ms total)
T041C 000:767 JLINK_ReadReg(R15 (PC))  returns 0x20000000 (0000ms, 0394ms total)
T041C 000:767 JLINK_ClrBPEx(BPHandle = 0x0000000F)  returns 0x00 (0000ms, 0394ms total)
T041C 000:767 JLINK_ReadReg(R0)  returns 0x00000000 (0000ms, 0394ms total)
T041C 000:767 JLINK_WriteMem(0x20000164, 0x029C Bytes, ...) - Data: FF F7 EA FF 3D 21 11 20 FF F7 9D FF 86 21 17 20 ... -- CPU_WriteMem(668 bytes @ 0x20000164)  returns 0x29C (0005ms, 0399ms total)
T041C 000:772 JLINK_WriteMem(0x20000400, 0x0164 Bytes, ...) - Data: 02 26 30 46 07 B0 70 BD F0 B5 87 B0 05 46 00 27 ... -- CPU_WriteMem(356 bytes @ 0x20000400)  returns 0x164 (0002ms, 0401ms total)
T041C 000:774 JLINK_WriteReg(R0, 0x08000800)  returns 0x00 (0000ms, 0401ms total)
T041C 000:774 JLINK_WriteReg(R1, 0x00000400)  returns 0x00 (0000ms, 0401ms total)
T041C 000:774 JLINK_WriteReg(R2, 0x20000164)  returns 0x00 (0000ms, 0401ms total)
T041C 000:774 JLINK_WriteReg(R3, 0x00000000)  returns 0x00 (0000ms, 0401ms total)
T041C 000:774 JLINK_WriteReg(R4, 0x00000000)  returns 0x00 (0000ms, 0401ms total)
T041C 000:774 JLINK_WriteReg(R5, 0x00000000)  returns 0x00 (0000ms, 0401ms total)
T041C 000:774 JLINK_WriteReg(R6, 0x00000000)  returns 0x00 (0000ms, 0401ms total)
T041C 000:774 JLINK_WriteReg(R7, 0x00000000)  returns 0x00 (0000ms, 0401ms total)
T041C 000:774 JLINK_WriteReg(R8, 0x00000000)  returns 0x00 (0001ms, 0402ms total)
T041C 000:775 JLINK_WriteReg(R9, 0x20000160)  returns 0x00 (0000ms, 0402ms total)
T041C 000:775 JLINK_WriteReg(R10, 0x00000000)  returns 0x00 (0000ms, 0402ms total)
T041C 000:775 JLINK_WriteReg(R11, 0x00000000)  returns 0x00 (0000ms, 0402ms total)
T041C 000:775 JLINK_WriteReg(R12, 0x00000000)  returns 0x00 (0000ms, 0402ms total)
T041C 000:775 JLINK_WriteReg(R13 (SP), 0x20001000)  returns 0x00 (0000ms, 0402ms total)
T041C 000:775 JLINK_WriteReg(R14, 0x20000001)  returns 0x00 (0000ms, 0402ms total)
T041C 000:775 JLINK_WriteReg(R15 (PC), 0x200000F4)  returns 0x00 (0000ms, 0402ms total)
T041C 000:775 JLINK_WriteReg(XPSR, 0x01000000)  returns 0x00 (0000ms, 0402ms total)
T041C 000:775 JLINK_WriteReg(MSP, 0x20001000)  returns 0x00 (0000ms, 0402ms total)
T041C 000:775 JLINK_WriteReg(PSP, 0x20001000)  returns 0x00 (0000ms, 0402ms total)
T041C 000:775 JLINK_WriteReg(CFBP, 0x00000000)  returns 0x00 (0000ms, 0402ms total)
T041C 000:775 JLINK_SetBPEx(Addr = 0x20000000, Type = 0xFFFFFFF2)  returns 0x00000010 (0000ms, 0402ms total)
T041C 000:775 JLINK_Go() (0001ms, 0403ms total)
T041C 000:776 JLINK_IsHalted()  returns FALSE (0001ms, 0404ms total)
T041C 000:782 JLINK_IsHalted()  returns FALSE (0000ms, 0403ms total)
T041C 000:784 JLINK_IsHalted()  returns FALSE (0000ms, 0403ms total)
T041C 000:790 JLINK_IsHalted()  returns FALSE (0000ms, 0403ms total)
T041C 000:792 JLINK_IsHalted()  returns FALSE (0000ms, 0403ms total)
T041C 000:794 JLINK_IsHalted()  returns FALSE (0000ms, 0403ms total)
T041C 000:796 JLINK_IsHalted()  returns FALSE (0000ms, 0403ms total)
T041C 000:798 JLINK_IsHalted()  returns FALSE (0000ms, 0403ms total)
T041C 000:800 JLINK_IsHalted()  returns FALSE (0000ms, 0403ms total)
T041C 000:804 JLINK_IsHalted()  returns FALSE (0000ms, 0403ms total)
T041C 000:806 JLINK_IsHalted()  returns FALSE (0000ms, 0403ms total)
T041C 000:808 JLINK_IsHalted() -- CPU_ReadMem(2 bytes @ 0x20000000)  returns TRUE (0002ms, 0405ms total)
T041C 000:810 JLINK_ReadReg(R15 (PC))  returns 0x20000000 (0000ms, 0403ms total)
T041C 000:810 JLINK_ClrBPEx(BPHandle = 0x00000010)  returns 0x00 (0000ms, 0403ms total)
T041C 000:810 JLINK_ReadReg(R0)  returns 0x00000000 (0000ms, 0403ms total)
T041C 000:811 JLINK_WriteMem(0x20000164, 0x029C Bytes, ...) - Data: 1F 46 8D F8 04 40 8D F8 05 50 30 68 CD F8 06 00 ... -- CPU_WriteMem(668 bytes @ 0x20000164)  returns 0x29C (0004ms, 0407ms total)
T041C 000:815 JLINK_WriteMem(0x20000400, 0x0164 Bytes, ...) - Data: 04 46 02 2C 00 D0 00 24 14 B1 02 20 07 B0 70 BD ... -- CPU_WriteMem(356 bytes @ 0x20000400)  returns 0x164 (0003ms, 0410ms total)
T041C 000:818 JLINK_WriteReg(R0, 0x08000C00)  returns 0x00 (0000ms, 0410ms total)
T041C 000:818 JLINK_WriteReg(R1, 0x00000400)  returns 0x00 (0000ms, 0410ms total)
T041C 000:818 JLINK_WriteReg(R2, 0x20000164)  returns 0x00 (0000ms, 0410ms total)
T041C 000:818 JLINK_WriteReg(R3, 0x00000000)  returns 0x00 (0000ms, 0410ms total)
T041C 000:818 JLINK_WriteReg(R4, 0x00000000)  returns 0x00 (0000ms, 0410ms total)
T041C 000:818 JLINK_WriteReg(R5, 0x00000000)  returns 0x00 (0000ms, 0410ms total)
T041C 000:818 JLINK_WriteReg(R6, 0x00000000)  returns 0x00 (0000ms, 0410ms total)
T041C 000:818 JLINK_WriteReg(R7, 0x00000000)  returns 0x00 (0000ms, 0410ms total)
T041C 000:818 JLINK_WriteReg(R8, 0x00000000)  returns 0x00 (0000ms, 0410ms total)
T041C 000:818 JLINK_WriteReg(R9, 0x20000160)  returns 0x00 (0000ms, 0410ms total)
